name,type,start_time,duration,"mosi","miso"
"SPI","enable",0.00001,0.0000001,,
"SPI","result",0.0000125,0.0000076,0x00,0x01
"SPI","result",0.0000225,0.0000076,0x01,0x02
"SPI","result",0.0000325,0.0000076,0x02,0x03
"SPI","disable",0.000042,0.0000001,,
"SPI","enable",0.000062,0.0000001,,
"SPI","result",0.0000645,0.0000076,0x04,0x05
"SPI","result",0.0000745,0.0000076,0x05,0x06
"SPI","result",0.0000845,0.0000076,0x06,0x07
"SPI","disable",0.000094,0.0000001,,
"SPI","enable",0.000114,0.0000001,,
"SPI","result",0.0001165,0.0000076,0x08,0x09
"SPI","result",0.0001265,0.0000076,0x09,0x0A
"SPI","result",0.0001365,0.0000076,0x0A,0x0B
"SPI","disable",0.000146,0.0000001,,
"SPI","enable",0.000166,0.0000001,,
"SPI","result",0.0001685,0.0000076,0x0C,0x0D
"SPI","result",0.0001785,0.0000076,0x0D,0x0E
"SPI","result",0.0001885,0.0000076,0x0E,0x0F
"SPI","disable",0.000198,0.0000001,,
"SPI","enable",0.000218,0.0000001,,
"SPI","result",0.0002205,0.0000076,0x10,0x11
"SPI","result",0.0002305,0.0000076,0x11,0x12
"SPI","result",0.0002405,0.0000076,0x12,0x13
"SPI","disable",0.00025,0.0000001,,
"SPI","enable",0.00027,0.0000001,,
"SPI","result",0.0002725,0.0000076,0x14,0x15
"SPI","result",0.0002825,0.0000076,0x15,0x16
"SPI","result",0.0002925,0.0000076,0x16,0x17
"SPI","disable",0.000302,0.0000001,,
"SPI","enable",0.000322,0.0000001,,
"SPI","result",0.0003245,0.0000076,0x18,0x19
"SPI","result",0.0003345,0.0000076,0x19,0x1A
"SPI","result",0.0003445,0.0000076,0x1A,0x1B
"SPI","disable",0.000354,0.0000001,,
"SPI","enable",0.000374,0.0000001,,
"SPI","result",0.0003765,0.0000076,0x1C,0x1D
"SPI","result",0.0003865,0.0000076,0x1D,0x1E
"SPI","result",0.0003965,0.0000076,0x1E,0x1F
"SPI","disable",0.000406,0.0000001,,
"SPI","enable",0.000426,0.0000001,,
"SPI","result",0.0004285,0.0000076,0x20,0x21
"SPI","result",0.0004385,0.0000076,0x21,0x22
"SPI","result",0.0004485,0.0000076,0x22,0x23
"SPI","disable",0.000458,0.0000001,,
"SPI","enable",0.000478,0.0000001,,
"SPI","result",0.0004805,0.0000076,0x24,0x25
"SPI","result",0.0004905,0.0000076,0x25,0x26
"SPI","result",0.0005005,0.0000076,0x26,0x27
"SPI","disable",0.00051,0.0000001,,
"SPI","enable",0.00053,0.0000001,,
"SPI","result",0.0005325,0.0000076,0x28,0x29
"SPI","result",0.0005425,0.0000076,0x29,0x2A
"SPI","result",0.0005525,0.0000076,0x2A,0x2B
"SPI","disable",0.000562,0.0000001,,
"SPI","enable",0.000582,0.0000001,,
"SPI","result",0.0005845,0.0000076,0x2C,0x2D
"SPI","result",0.0005945,0.0000076,0x2D,0x2E
"SPI","result",0.0006045,0.0000076,0x2E,0x2F
"SPI","disable",0.000614,0.0000001,,
"SPI","enable",0.000634,0.0000001,,
"SPI","result",0.0006365,0.0000076,0x30,0x31
"SPI","result",0.0006465,0.0000076,0x31,0x32
"SPI","result",0.0006565,0.0000076,0x32,0x33
"SPI","disable",0.000666,0.0000001,,
"SPI","enable",0.000686,0.0000001,,
"SPI","result",0.0006885,0.0000076,0x34,0x35
"SPI","result",0.0006985,0.0000076,0x35,0x36
"SPI","result",0.0007085,0.0000076,0x36,0x37
"SPI","disable",0.000718,0.0000001,,
"SPI","enable",0.000738,0.0000001,,
"SPI","result",0.0007405,0.0000076,0x38,0x39
"SPI","result",0.0007505,0.0000076,0x39,0x3A
"SPI","result",0.0007605,0.0000076,0x3A,0x3B
"SPI","disable",0.00077,0.0000001,,
"SPI","enable",0.00079,0.0000001,,
"SPI","result",0.0007925,0.0000076,0x3C,0x3D
"SPI","result",0.0008025,0.0000076,0x3D,0x3E
"SPI","result",0.0008125,0.0000076,0x3E,0x3F
"SPI","disable",0.000822,0.0000001,,
"SPI","enable",0.000842,0.0000001,,
"SPI","result",0.0008445,0.0000076,0x40,0x41
"SPI","result",0.0008545,0.0000076,0x41,0x42
"SPI","result",0.0008645,0.0000076,0x42,0x43
"SPI","disable",0.000874,0.0000001,,
"SPI","enable",0.000894,0.0000001,,
"SPI","result",0.0008965,0.0000076,0x44,0x45
"SPI","result",0.0009065,0.0000076,0x45,0x46
"SPI","result",0.0009165,0.0000076,0x46,0x47
"SPI","disable",0.000926,0.0000001,,
"SPI","enable",0.000946,0.0000001,,
"SPI","result",0.0009485,0.0000076,0x48,0x49
"SPI","result",0.0009585,0.0000076,0x49,0x4A
"SPI","result",0.0009685,0.0000076,0x4A,0x4B
"SPI","disable",0.000978,0.0000001,,
"SPI","enable",0.000998,0.0000001,,
"SPI","result",0.0010005,0.0000076,0x4C,0x4D
"SPI","result",0.0010105,0.0000076,0x4D,0x4E
"SPI","result",0.0010205,0.0000076,0x4E,0x4F
"SPI","disable",0.00103,0.0000001,,
"SPI","enable",0.00105,0.0000001,,
"SPI","result",0.0010525,0.0000076,0x50,0x51
"SPI","result",0.0010625,0.0000076,0x51,0x52
"SPI","result",0.0010725,0.0000076,0x52,0x53
"SPI","disable",0.001082,0.0000001,,
"SPI","enable",0.001102,0.0000001,,
"SPI","result",0.0011045,0.0000076,0x54,0x55
"SPI","result",0.0011145,0.0000076,0x55,0x56
"SPI","result",0.0011245,0.0000076,0x56,0x57
"SPI","disable",0.001134,0.0000001,,
"SPI","enable",0.001154,0.0000001,,
"SPI","result",0.0011565,0.0000076,0x58,0x59
"SPI","result",0.0011665,0.0000076,0x59,0x5A
"SPI","result",0.0011765,0.0000076,0x5A,0x5B
"SPI","disable",0.001186,0.0000001,,
"SPI","enable",0.001206,0.0000001,,
"SPI","result",0.0012085,0.0000076,0x5C,0x5D
"SPI","result",0.0012185,0.0000076,0x5D,0x5E
"SPI","result",0.0012285,0.0000076,0x5E,0x5F
"SPI","disable",0.001238,0.0000001,,
"SPI","enable",0.001258,0.0000001,,
"SPI","result",0.0012605,0.0000076,0x60,0x61
"SPI","result",0.0012705,0.0000076,0x61,0x62
"SPI","result",0.0012805,0.0000076,0x62,0x63
"SPI","disable",0.00129,0.0000001,,
"SPI","enable",0.00131,0.0000001,,
"SPI","result",0.0013125,0.0000076,0x64,0x65
"SPI","result",0.0013225,0.0000076,0x65,0x66
"SPI","result",0.0013325,0.0000076,0x66,0x67
"SPI","disable",0.001342,0.0000001,,
"SPI","enable",0.001362,0.0000001,,
"SPI","result",0.0013645,0.0000076,0x68,0x69
"SPI","result",0.0013745,0.0000076,0x69,0x6A
"SPI","result",0.0013845,0.0000076,0x6A,0x6B
"SPI","disable",0.001394,0.0000001,,
"SPI","enable",0.001414,0.0000001,,
"SPI","result",0.0014165,0.0000076,0x6C,0x6D
"SPI","result",0.0014265,0.0000076,0x6D,0x6E
"SPI","result",0.0014365,0.0000076,0x6E,0x6F
"SPI","disable",0.001446,0.0000001,,
"SPI","enable",0.001466,0.0000001,,
"SPI","result",0.0014685,0.0000076,0x70,0x71
"SPI","result",0.0014785,0.0000076,0x71,0x72
"SPI","result",0.0014885,0.0000076,0x72,0x73
"SPI","disable",0.001498,0.0000001,,
"SPI","enable",0.001518,0.0000001,,
"SPI","result",0.0015205,0.0000076,0x74,0x75
"SPI","result",0.0015305,0.0000076,0x75,0x76
"SPI","result",0.0015405,0.0000076,0x76,0x77
"SPI","disable",0.00155,0.0000001,,
"SPI","enable",0.00157,0.0000001,,
"SPI","result",0.0015725,0.0000076,0x78,0x79
"SPI","result",0.0015825,0.0000076,0x79,0x7A
"SPI","result",0.0015925,0.0000076,0x7A,0x7B
"SPI","disable",0.001602,0.0000001,,
"SPI","enable",0.001622,0.0000001,,
"SPI","result",0.0016245,0.0000076,0x7C,0x7D
"SPI","result",0.0016345,0.0000076,0x7D,0x7E
"SPI","result",0.0016445,0.0000076,0x7E,0x7F
"SPI","disable",0.001654,0.0000001,,
"SPI","enable",0.001674,0.0000001,,
"SPI","result",0.0016765,0.0000076,0x80,0x81
"SPI","result",0.0016865,0.0000076,0x81,0x82
"SPI","result",0.0016965,0.0000076,0x82,0x83
"SPI","disable",0.001706,0.0000001,,
"SPI","enable",0.001726,0.0000001,,
"SPI","result",0.0017285,0.0000076,0x84,0x85
"SPI","result",0.0017385,0.0000076,0x85,0x86
"SPI","result",0.0017485,0.0000076,0x86,0x87
"SPI","disable",0.001758,0.0000001,,
"SPI","enable",0.001778,0.0000001,,
"SPI","result",0.0017805,0.0000076,0x88,0x89
"SPI","result",0.0017905,0.0000076,0x89,0x8A
"SPI","result",0.0018005,0.0000076,0x8A,0x8B
"SPI","disable",0.00181,0.0000001,,
"SPI","enable",0.00183,0.0000001,,
"SPI","result",0.0018325,0.0000076,0x8C,0x8D
"SPI","result",0.0018425,0.0000076,0x8D,0x8E
"SPI","result",0.0018525,0.0000076,0x8E,0x8F
"SPI","disable",0.001862,0.0000001,,
"SPI","enable",0.001882,0.0000001,,
"SPI","result",0.0018845,0.0000076,0x90,0x91
"SPI","result",0.0018945,0.0000076,0x91,0x92
"SPI","result",0.0019045,0.0000076,0x92,0x93
"SPI","disable",0.001914,0.0000001,,
"SPI","enable",0.001934,0.0000001,,
"SPI","result",0.0019365,0.0000076,0x94,0x95
"SPI","result",0.0019465,0.0000076,0x95,0x96
"SPI","result",0.0019565,0.0000076,0x96,0x97
"SPI","disable",0.001966,0.0000001,,
"SPI","enable",0.001986,0.0000001,,
"SPI","result",0.0019885,0.0000076,0x98,0x99
"SPI","result",0.0019985,0.0000076,0x99,0x9A
"SPI","result",0.0020085,0.0000076,0x9A,0x9B
"SPI","disable",0.002018,0.0000001,,
"SPI","enable",0.002038,0.0000001,,
"SPI","result",0.0020405,0.0000076,0x9C,0x9D
"SPI","result",0.0020505,0.0000076,0x9D,0x9E
"SPI","result",0.0020605,0.0000076,0x9E,0x9F
"SPI","disable",0.00207,0.0000001,,
"SPI","enable",0.00209,0.0000001,,
"SPI","result",0.0020925,0.0000076,0xA0,0xA1
"SPI","result",0.0021025,0.0000076,0xA1,0xA2
"SPI","result",0.0021125,0.0000076,0xA2,0xA3
"SPI","disable",0.002122,0.0000001,,
"SPI","enable",0.002142,0.0000001,,
"SPI","result",0.0021445,0.0000076,0xA4,0xA5
"SPI","result",0.0021545,0.0000076,0xA5,0xA6
"SPI","result",0.0021645,0.0000076,0xA6,0xA7
"SPI","disable",0.002174,0.0000001,,
"SPI","enable",0.002194,0.0000001,,
"SPI","result",0.0021965,0.0000076,0xA8,0xA9
"SPI","result",0.0022065,0.0000076,0xA9,0xAA
"SPI","result",0.0022165,0.0000076,0xAA,0xAB
"SPI","disable",0.002226,0.0000001,,
"SPI","enable",0.002246,0.0000001,,
"SPI","result",0.0022485,0.0000076,0xAC,0xAD
"SPI","result",0.0022585,0.0000076,0xAD,0xAE
"SPI","result",0.0022685,0.0000076,0xAE,0xAF
"SPI","disable",0.002278,0.0000001,,
"SPI","enable",0.002298,0.0000001,,
"SPI","result",0.0023005,0.0000076,0xB0,0xB1
"SPI","result",0.0023105,0.0000076,0xB1,0xB2
"SPI","result",0.0023205,0.0000076,0xB2,0xB3
"SPI","disable",0.00233,0.0000001,,
"SPI","enable",0.00235,0.0000001,,
"SPI","result",0.0023525,0.0000076,0xB4,0xB5
"SPI","result",0.0023625,0.0000076,0xB5,0xB6
"SPI","result",0.0023725,0.0000076,0xB6,0xB7
"SPI","disable",0.002382,0.0000001,,
"SPI","enable",0.002402,0.0000001,,
"SPI","result",0.0024045,0.0000076,0xB8,0xB9
"SPI","result",0.0024145,0.0000076,0xB9,0xBA
"SPI","result",0.0024245,0.0000076,0xBA,0xBB
"SPI","disable",0.002434,0.0000001,,
"SPI","enable",0.002454,0.0000001,,
"SPI","result",0.0024565,0.0000076,0xBC,0xBD
"SPI","result",0.0024665,0.0000076,0xBD,0xBE
"SPI","result",0.0024765,0.0000076,0xBE,0xBF
"SPI","disable",0.002486,0.0000001,,
"SPI","enable",0.002506,0.0000001,,
"SPI","result",0.0025085,0.0000076,0xC0,0xC1
"SPI","result",0.0025185,0.0000076,0xC1,0xC2
"SPI","result",0.0025285,0.0000076,0xC2,0xC3
"SPI","disable",0.002538,0.0000001,,
"SPI","enable",0.002558,0.0000001,,
"SPI","result",0.0025605,0.0000076,0xC4,0xC5
"SPI","result",0.0025705,0.0000076,0xC5,0xC6
"SPI","result",0.0025805,0.0000076,0xC6,0xC7
"SPI","disable",0.00259,0.0000001,,
"SPI","enable",0.00261,0.0000001,,
"SPI","result",0.0026125,0.0000076,0xC8,0xC9
"SPI","result",0.0026225,0.0000076,0xC9,0xCA
"SPI","result",0.0026325,0.0000076,0xCA,0xCB
"SPI","disable",0.002642,0.0000001,,
"SPI","enable",0.002662,0.0000001,,
"SPI","result",0.0026645,0.0000076,0xCC,0xCD
"SPI","result",0.0026745,0.0000076,0xCD,0xCE
"SPI","result",0.0026845,0.0000076,0xCE,0xCF
"SPI","disable",0.002694,0.0000001,,
"SPI","enable",0.002714,0.0000001,,
"SPI","result",0.0027165,0.0000076,0xD0,0xD1
"SPI","result",0.0027265,0.0000076,0xD1,0xD2
"SPI","result",0.0027365,0.0000076,0xD2,0xD3
"SPI","disable",0.002746,0.0000001,,
"SPI","enable",0.002766,0.0000001,,
"SPI","result",0.0027685,0.0000076,0xD4,0xD5
"SPI","result",0.0027785,0.0000076,0xD5,0xD6
"SPI","result",0.0027885,0.0000076,0xD6,0xD7
"SPI","disable",0.002798,0.0000001,,
"SPI","enable",0.002818,0.0000001,,
"SPI","result",0.0028205,0.0000076,0xD8,0xD9
"SPI","result",0.0028305,0.0000076,0xD9,0xDA
"SPI","result",0.0028405,0.0000076,0xDA,0xDB
"SPI","disable",0.00285,0.0000001,,
"SPI","enable",0.00287,0.0000001,,
"SPI","result",0.0028725,0.0000076,0xDC,0xDD
"SPI","result",0.0028825,0.0000076,0xDD,0xDE
"SPI","result",0.0028925,0.0000076,0xDE,0xDF
"SPI","disable",0.002902,0.0000001,,
"SPI","enable",0.002922,0.0000001,,
"SPI","result",0.0029245,0.0000076,0xE0,0xE1
"SPI","result",0.0029345,0.0000076,0xE1,0xE2
"SPI","result",0.0029445,0.0000076,0xE2,0xE3
"SPI","disable",0.002954,0.0000001,,
"SPI","enable",0.002974,0.0000001,,
"SPI","result",0.0029765,0.0000076,0xE4,0xE5
"SPI","result",0.0029865,0.0000076,0xE5,0xE6
"SPI","result",0.0029965,0.0000076,0xE6,0xE7
"SPI","disable",0.003006,0.0000001,,
"SPI","enable",0.003026,0.0000001,,
"SPI","result",0.0030285,0.0000076,0xE8,0xE9
"SPI","result",0.0030385,0.0000076,0xE9,0xEA
"SPI","result",0.0030485,0.0000076,0xEA,0xEB
"SPI","disable",0.003058,0.0000001,,
"SPI","enable",0.003078,0.0000001,,
"SPI","result",0.0030805,0.0000076,0xEC,0xED
"SPI","result",0.0030905,0.0000076,0xED,0xEE
"SPI","result",0.0031005,0.0000076,0xEE,0xEF
"SPI","disable",0.00311,0.0000001,,
"SPI","enable",0.00313,0.0000001,,
"SPI","result",0.0031325,0.0000076,0xF0,0xF1
"SPI","result",0.0031425,0.0000076,0xF1,0xF2
"SPI","result",0.0031525,0.0000076,0xF2,0xF3
"SPI","disable",0.003162,0.0000001,,
"SPI","enable",0.003182,0.0000001,,
"SPI","result",0.0031845,0.0000076,0xF4,0xF5
"SPI","result",0.0031945,0.0000076,0xF5,0xF6
"SPI","result",0.0032045,0.0000076,0xF6,0xF7
"SPI","disable",0.003214,0.0000001,,
"SPI","enable",0.003234,0.0000001,,
"SPI","result",0.0032365,0.0000076,0xF8,0xF9
"SPI","result",0.0032465,0.0000076,0xF9,0xFA
"SPI","result",0.0032565,0.0000076,0xFA,0xFB
"SPI","disable",0.003266,0.0000001,,
"SPI","enable",0.003286,0.0000001,,
"SPI","result",0.0032885,0.0000076,0xFC,0xFD
"SPI","result",0.0032985,0.0000076,0xFD,0xFE
"SPI","result",0.0033085,0.0000076,0xFE,0xFF
"SPI","disable",0.003318,0.0000001,,
"SPI","enable",0.003338,0.0000001,,
"SPI","result",0.0033405,0.0000076,0x00,0x01
"SPI","result",0.0033505,0.0000076,0x01,0x02
"SPI","result",0.0033605,0.0000076,0x02,0x03
"SPI","disable",0.00337,0.0000001,,
"SPI","enable",0.00339,0.0000001,,
"SPI","result",0.0033925,0.0000076,0x04,0x05
"SPI","result",0.0034025,0.0000076,0x05,0x06
"SPI","result",0.0034125,0.0000076,0x06,0x07
"SPI","disable",0.003422,0.0000001,,
"SPI","enable",0.003442,0.0000001,,
"SPI","result",0.0034445,0.0000076,0x08,0x09
"SPI","result",0.0034545,0.0000076,0x09,0x0A
"SPI","result",0.0034645,0.0000076,0x0A,0x0B
"SPI","disable",0.003474,0.0000001,,
"SPI","enable",0.003494,0.0000001,,
"SPI","result",0.0034965,0.0000076,0x0C,0x0D
"SPI","result",0.0035065,0.0000076,0x0D,0x0E
"SPI","result",0.0035165,0.0000076,0x0E,0x0F
"SPI","disable",0.003526,0.0000001,,
"SPI","enable",0.003546,0.0000001,,
"SPI","result",0.0035485,0.0000076,0x10,0x11
"SPI","result",0.0035585,0.0000076,0x11,0x12
"SPI","result",0.0035685,0.0000076,0x12,0x13
"SPI","disable",0.003578,0.0000001,,
"SPI","enable",0.003598,0.0000001,,
"SPI","result",0.0036005,0.0000076,0x14,0x15
"SPI","result",0.0036105,0.0000076,0x15,0x16
"SPI","result",0.0036205,0.0000076,0x16,0x17
"SPI","disable",0.00363,0.0000001,,
"SPI","enable",0.00365,0.0000001,,
"SPI","result",0.0036525,0.0000076,0x18,0x19
"SPI","result",0.0036625,0.0000076,0x19,0x1A
"SPI","result",0.0036725,0.0000076,0x1A,0x1B
"SPI","disable",0.003682,0.0000001,,
"SPI","enable",0.003702,0.0000001,,
"SPI","result",0.0037045,0.0000076,0x1C,0x1D
"SPI","result",0.0037145,0.0000076,0x1D,0x1E
"SPI","result",0.0037245,0.0000076,0x1E,0x1F
"SPI","disable",0.003734,0.0000001,,
"SPI","enable",0.003754,0.0000001,,
"SPI","result",0.0037565,0.0000076,0x20,0x21
"SPI","result",0.0037665,0.0000076,0x21,0x22
"SPI","result",0.0037765,0.0000076,0x22,0x23
"SPI","disable",0.003786,0.0000001,,
"SPI","enable",0.003806,0.0000001,,
"SPI","result",0.0038085,0.0000076,0x24,0x25
"SPI","result",0.0038185,0.0000076,0x25,0x26
"SPI","result",0.0038285,0.0000076,0x26,0x27
"SPI","disable",0.003838,0.0000001,,
"SPI","enable",0.003858,0.0000001,,
"SPI","result",0.0038605,0.0000076,0x28,0x29
"SPI","result",0.0038705,0.0000076,0x29,0x2A
"SPI","result",0.0038805,0.0000076,0x2A,0x2B
"SPI","disable",0.00389,0.0000001,,
"SPI","enable",0.00391,0.0000001,,
"SPI","result",0.0039125,0.0000076,0x2C,0x2D
"SPI","result",0.0039225,0.0000076,0x2D,0x2E
"SPI","result",0.0039325,0.0000076,0x2E,0x2F
"SPI","disable",0.003942,0.0000001,,
"SPI","enable",0.003962,0.0000001,,
"SPI","result",0.0039645,0.0000076,0x30,0x31
"SPI","result",0.0039745,0.0000076,0x31,0x32
"SPI","result",0.0039845,0.0000076,0x32,0x33
"SPI","disable",0.003994,0.0000001,,
"SPI","enable",0.004014,0.0000001,,
"SPI","result",0.0040165,0.0000076,0x34,0x35
"SPI","result",0.0040265,0.0000076,0x35,0x36
"SPI","result",0.0040365,0.0000076,0x36,0x37
"SPI","disable",0.004046,0.0000001,,
"SPI","enable",0.004066,0.0000001,,
"SPI","result",0.0040685,0.0000076,0x38,0x39
"SPI","result",0.0040785,0.0000076,0x39,0x3A
"SPI","result",0.0040885,0.0000076,0x3A,0x3B
"SPI","disable",0.004098,0.0000001,,
"SPI","enable",0.004118,0.0000001,,
"SPI","result",0.0041205,0.0000076,0x3C,0x3D
"SPI","result",0.0041305,0.0000076,0x3D,0x3E
"SPI","result",0.0041405,0.0000076,0x3E,0x3F
"SPI","disable",0.00415,0.0000001,,
"SPI","enable",0.00417,0.0000001,,
"SPI","result",0.0041725,0.0000076,0x40,0x41
"SPI","result",0.0041825,0.0000076,0x41,0x42
"SPI","result",0.0041925,0.0000076,0x42,0x43
"SPI","disable",0.004202,0.0000001,,
"SPI","enable",0.004222,0.0000001,,
"SPI","result",0.0042245,0.0000076,0x44,0x45
"SPI","result",0.0042345,0.0000076,0x45,0x46
"SPI","result",0.0042445,0.0000076,0x46,0x47
"SPI","disable",0.004254,0.0000001,,
"SPI","enable",0.004274,0.0000001,,
"SPI","result",0.0042765,0.0000076,0x48,0x49
"SPI","result",0.0042865,0.0000076,0x49,0x4A
"SPI","result",0.0042965,0.0000076,0x4A,0x4B
"SPI","disable",0.004306,0.0000001,,
"SPI","enable",0.004326,0.0000001,,
"SPI","result",0.0043285,0.0000076,0x4C,0x4D
"SPI","result",0.0043385,0.0000076,0x4D,0x4E
"SPI","result",0.0043485,0.0000076,0x4E,0x4F
"SPI","disable",0.004358,0.0000001,,
"SPI","enable",0.004378,0.0000001,,
"SPI","result",0.0043805,0.0000076,0x50,0x51
"SPI","result",0.0043905,0.0000076,0x51,0x52
"SPI","result",0.0044005,0.0000076,0x52,0x53
"SPI","disable",0.00441,0.0000001,,
"SPI","enable",0.00443,0.0000001,,
"SPI","result",0.0044325,0.0000076,0x54,0x55
"SPI","result",0.0044425,0.0000076,0x55,0x56
"SPI","result",0.0044525,0.0000076,0x56,0x57
"SPI","disable",0.004462,0.0000001,,
"SPI","enable",0.004482,0.0000001,,
"SPI","result",0.0044845,0.0000076,0x58,0x59
"SPI","result",0.0044945,0.0000076,0x59,0x5A
"SPI","result",0.0045045,0.0000076,0x5A,0x5B
"SPI","disable",0.004514,0.0000001,,
"SPI","enable",0.004534,0.0000001,,
"SPI","result",0.0045365,0.0000076,0x5C,0x5D
"SPI","result",0.0045465,0.0000076,0x5D,0x5E
"SPI","result",0.0045565,0.0000076,0x5E,0x5F
"SPI","disable",0.004566,0.0000001,,
"SPI","enable",0.004586,0.0000001,,
"SPI","result",0.0045885,0.0000076,0x60,0x61
"SPI","result",0.0045985,0.0000076,0x61,0x62
"SPI","result",0.0046085,0.0000076,0x62,0x63
"SPI","disable",0.004618,0.0000001,,
"SPI","enable",0.004638,0.0000001,,
"SPI","result",0.0046405,0.0000076,0x64,0x65
"SPI","result",0.0046505,0.0000076,0x65,0x66
"SPI","result",0.0046605,0.0000076,0x66,0x67
"SPI","disable",0.00467,0.0000001,,
"SPI","enable",0.00469,0.0000001,,
"SPI","result",0.0046925,0.0000076,0x68,0x69
"SPI","result",0.0047025,0.0000076,0x69,0x6A
"SPI","result",0.0047125,0.0000076,0x6A,0x6B
"SPI","disable",0.004722,0.0000001,,
"SPI","enable",0.004742,0.0000001,,
"SPI","result",0.0047445,0.0000076,0x6C,0x6D
"SPI","result",0.0047545,0.0000076,0x6D,0x6E
"SPI","result",0.0047645,0.0000076,0x6E,0x6F
"SPI","disable",0.004774,0.0000001,,
"SPI","enable",0.004794,0.0000001,,
"SPI","result",0.0047965,0.0000076,0x70,0x71
"SPI","result",0.0048065,0.0000076,0x71,0x72
"SPI","result",0.0048165,0.0000076,0x72,0x73
"SPI","disable",0.004826,0.0000001,,
"SPI","enable",0.004846,0.0000001,,
"SPI","result",0.0048485,0.0000076,0x74,0x75
"SPI","result",0.0048585,0.0000076,0x75,0x76
"SPI","result",0.0048685,0.0000076,0x76,0x77
"SPI","disable",0.004878,0.0000001,,
"SPI","enable",0.004898,0.0000001,,
"SPI","result",0.0049005,0.0000076,0x78,0x79
"SPI","result",0.0049105,0.0000076,0x79,0x7A
"SPI","result",0.0049205,0.0000076,0x7A,0x7B
"SPI","disable",0.00493,0.0000001,,
"SPI","enable",0.00495,0.0000001,,
"SPI","result",0.0049525,0.0000076,0x7C,0x7D
"SPI","result",0.0049625,0.0000076,0x7D,0x7E
"SPI","result",0.0049725,0.0000076,0x7E,0x7F
"SPI","disable",0.004982,0.0000001,,
