name,type,start_time,duration,mosi,miso
"SPI","error",0.286004792,4.68e-06,,
"SPI","enable",0.326182392,7.99999998e-09,,
"SPI","result",0.326183288,3.36e-06,0xBA,0x91
"SPI","result",0.326187768,3.352e-06,0x5A,0xFF
"SPI","disable",0.32619164,7.99999998e-09,,
"SPI","enable",0.329206888,8e-09,,
"SPI","result",0.32920689599999997,3.36e-06,0x0,0x0
"SPI","result",0.329210256,3.352e-06,0x01,0x0
"SPI","disable",0.329213608,8e-09,,
"SPI","enable",0.330206888,8e-09,,
"SPI","result",0.33020689599999997,3.36e-06,0x01,0x3
"SPI","result",0.330210256,3.352e-06,0x02,0x7
"SPI","disable",0.330213608,8e-09,,
"SPI","enable",0.331206888,8e-09,,
"SPI","result",0.331206896,3.36e-06,0x02,0x6
"SPI","result",0.331210256,3.352e-06,0x03,0xE
"SPI","disable",0.331213608,8e-09,,
"SPI","enable",0.332206888,8e-09,,
"SPI","result",0.332206896,3.36e-06,0x03,0x9
"SPI","result",0.332210256,3.352e-06,0x04,0x15
"SPI","disable",0.332213608,8e-09,,
"SPI","enable",0.333206888,8e-09,,
"SPI","result",0.333206896,3.36e-06,0x04,0xC
"SPI","result",0.333210256,3.352e-06,0x05,0x1C
"SPI","disable",0.333213608,8e-09,,
"SPI","enable",0.334206888,8e-09,,
"SPI","result",0.334206896,3.36e-06,0x05,0xF
"SPI","result",0.334210256,3.352e-06,0x06,0x23
"SPI","disable",0.334213608,8e-09,,
"SPI","enable",0.335206888,8e-09,,
"SPI","result",0.335206896,3.36e-06,0x06,0x12
"SPI","result",0.335210256,3.352e-06,0x07,0x2A
"SPI","disable",0.335213608,8e-09,,
"SPI","enable",0.336206888,8e-09,,
"SPI","result",0.336206896,3.36e-06,0x07,0x15
"SPI","result",0.336210256,3.352e-06,0x08,0x31
"SPI","disable",0.336213608,8e-09,,
"SPI","enable",0.337206888,8e-09,,
"SPI","result",0.337206896,3.36e-06,0x08,0x18
"SPI","result",0.337210256,3.352e-06,0x09,0x38
"SPI","disable",0.337213608,8e-09,,
"SPI","enable",0.338206888,8e-09,,
"SPI","result",0.338206896,3.36e-06,0x09,0x1B
"SPI","result",0.338210256,3.352e-06,0x0A,0x3F
"SPI","disable",0.338213608,8e-09,,
"SPI","enable",0.339206888,8e-09,,
"SPI","result",0.339206896,3.36e-06,0x0A,0x1E
"SPI","result",0.339210256,3.352e-06,0x0B,0x46
"SPI","disable",0.339213608,8e-09,,
"SPI","enable",0.340206888,8e-09,,
"SPI","result",0.340206896,3.36e-06,0x0B,0x21
"SPI","result",0.340210256,3.352e-06,0x0C,0x4D
"SPI","disable",0.340213608,8e-09,,
"SPI","enable",0.341206888,8e-09,,
"SPI","result",0.341206896,3.36e-06,0x0C,0x24
"SPI","result",0.341210256,3.352e-06,0x0D,0x54
"SPI","disable",0.341213608,8e-09,,
"SPI","enable",0.342206888,8e-09,,
"SPI","result",0.342206896,3.36e-06,0x0D,0x27
"SPI","result",0.342210256,3.352e-06,0x0E,0x5B
"SPI","disable",0.342213608,8e-09,,
"SPI","enable",0.343206888,8e-09,,
"SPI","result",0.343206896,3.36e-06,0x0E,0x2A
"SPI","result",0.343210256,3.352e-06,0x0F,0x62
"SPI","disable",0.343213608,8e-09,,
"SPI","enable",0.344206888,8e-09,,
"SPI","result",0.344206896,3.36e-06,0x0F,0x2D
"SPI","result",0.344210256,3.352e-06,0x10,0x69
"SPI","disable",0.344213608,8e-09,,
"SPI","enable",0.345206888,8e-09,,
"SPI","result",0.345206896,3.36e-06,0x10,0x30
"SPI","result",0.345210256,3.352e-06,0x11,0x70
"SPI","disable",0.345213608,8e-09,,
"SPI","enable",0.346206888,8e-09,,
"SPI","result",0.346206896,3.36e-06,0x11,0x33
"SPI","result",0.346210256,3.352e-06,0x12,0x77
"SPI","disable",0.346213608,8e-09,,
"SPI","enable",0.347206888,8e-09,,
"SPI","result",0.347206896,3.36e-06,0x12,0x36
"SPI","result",0.347210256,3.352e-06,0x13,0x7E
"SPI","disable",0.347213608,8e-09,,
"SPI","enable",0.348206888,8e-09,,
"SPI","result",0.348206896,3.36e-06,0x13,0x39
"SPI","result",0.348210256,3.352e-06,0x14,0x85
"SPI","disable",0.348213608,8e-09,,
"SPI","enable",0.349206888,8e-09,,
"SPI","result",0.349206896,3.36e-06,0x14,0x3C
"SPI","result",0.349210256,3.352e-06,0x15,0x8C
"SPI","disable",0.349213608,8e-09,,
"SPI","enable",0.350206888,8e-09,,
"SPI","result",0.350206896,3.36e-06,0x15,0x3F
"SPI","result",0.350210256,3.352e-06,0x16,0x93
"SPI","disable",0.350213608,8e-09,,
"SPI","enable",0.351206888,8e-09,,
"SPI","result",0.351206896,3.36e-06,0x16,0x42
"SPI","result",0.351210256,3.352e-06,0x17,0x9A
"SPI","disable",0.351213608,8e-09,,
"SPI","enable",0.352206888,8e-09,,
"SPI","result",0.352206896,3.36e-06,0x17,0x45
"SPI","result",0.352210256,3.352e-06,0x18,0xA1
"SPI","disable",0.352213608,8e-09,,
"SPI","enable",0.353206888,8e-09,,
"SPI","result",0.353206896,3.36e-06,0x18,0x48
"SPI","result",0.353210256,3.352e-06,0x19,0xA8
"SPI","disable",0.353213608,8e-09,,
"SPI","enable",0.354206888,8e-09,,
"SPI","result",0.354206896,3.36e-06,0x19,0x4B
"SPI","result",0.354210256,3.352e-06,0x1A,0xAF
"SPI","disable",0.354213608,8e-09,,
"SPI","enable",0.355206888,8e-09,,
"SPI","result",0.355206896,3.36e-06,0x1A,0x4E
"SPI","result",0.355210256,3.352e-06,0x1B,0xB6
"SPI","disable",0.355213608,8e-09,,
"SPI","enable",0.356206888,8e-09,,
"SPI","result",0.356206896,3.36e-06,0x1B,0x51
"SPI","result",0.356210256,3.352e-06,0x1C,0xBD
"SPI","disable",0.356213608,8e-09,,
"SPI","enable",0.357206888,8e-09,,
"SPI","result",0.357206896,3.36e-06,0x1C,0x54
"SPI","result",0.357210256,3.352e-06,0x1D,0xC4
"SPI","disable",0.357213608,8e-09,,
"SPI","enable",0.358206888,8e-09,,
"SPI","result",0.358206896,3.36e-06,0x1D,0x57
"SPI","result",0.358210256,3.352e-06,0x1E,0xCB
"SPI","disable",0.358213608,8e-09,,
"SPI","enable",0.359206888,8e-09,,
"SPI","result",0.359206896,3.36e-06,0x1E,0x5A
"SPI","result",0.359210256,3.352e-06,0x1F,0xD2
"SPI","disable",0.359213608,8e-09,,
"SPI","enable",0.360206888,8e-09,,
"SPI","result",0.360206896,3.36e-06,0x1F,0x5D
"SPI","result",0.360210256,3.352e-06,0x20,0xD9
"SPI","disable",0.360213608,8e-09,,
"SPI","enable",0.361206888,8e-09,,
"SPI","result",0.361206896,3.36e-06,0x20,0x60
"SPI","result",0.361210256,3.352e-06,0x21,0xE0
"SPI","disable",0.361213608,8e-09,,
"SPI","enable",0.362206888,8e-09,,
"SPI","result",0.362206896,3.36e-06,0x21,0x63
"SPI","result",0.362210256,3.352e-06,0x22,0xE7
"SPI","disable",0.362213608,8e-09,,
"SPI","enable",0.363206888,8e-09,,
"SPI","result",0.363206896,3.36e-06,0x22,0x66
"SPI","result",0.363210256,3.352e-06,0x23,0xEE
"SPI","disable",0.363213608,8e-09,,
"SPI","enable",0.364206888,8e-09,,
"SPI","result",0.364206896,3.36e-06,0x23,0x69
"SPI","result",0.364210256,3.352e-06,0x24,0xF5
"SPI","disable",0.364213608,8e-09,,
"SPI","enable",0.365206888,8e-09,,
"SPI","result",0.365206896,3.36e-06,0x24,0x6C
"SPI","result",0.365210256,3.352e-06,0x25,0xFC
"SPI","disable",0.365213608,8e-09,,
"SPI","enable",0.366206888,8e-09,,
"SPI","result",0.366206896,3.36e-06,0x25,0x6F
"SPI","result",0.366210256,3.352e-06,0x26,0x3
"SPI","disable",0.366213608,8e-09,,
"SPI","enable",0.367206888,8e-09,,
"SPI","result",0.367206896,3.36e-06,0x26,0x72
"SPI","result",0.367210256,3.352e-06,0x27,0xA
"SPI","disable",0.367213608,8e-09,,
"SPI","enable",0.368206888,8e-09,,
"SPI","result",0.368206896,3.36e-06,0x27,0x75
"SPI","result",0.368210256,3.352e-06,0x28,0x11
"SPI","disable",0.368213608,8e-09,,
"SPI","enable",0.369206888,8e-09,,
"SPI","result",0.369206896,3.36e-06,0x28,0x78
"SPI","result",0.369210256,3.352e-06,0x29,0x18
"SPI","disable",0.369213608,8e-09,,
"SPI","enable",0.370206888,8e-09,,
"SPI","result",0.370206896,3.36e-06,0x29,0x7B
"SPI","result",0.370210256,3.352e-06,0x2A,0x1F
"SPI","disable",0.370213608,8e-09,,
"SPI","enable",0.371206888,8e-09,,
"SPI","result",0.371206896,3.36e-06,0x2A,0x7E
"SPI","result",0.371210256,3.352e-06,0x2B,0x26
"SPI","disable",0.37121360800000003,8e-09,,
"SPI","enable",0.372206888,8e-09,,
"SPI","result",0.372206896,3.36e-06,0x2B,0x81
"SPI","result",0.372210256,3.352e-06,0x2C,0x2D
"SPI","disable",0.37221360800000003,8e-09,,
"SPI","enable",0.373206888,8e-09,,
"SPI","result",0.373206896,3.36e-06,0x2C,0x84
"SPI","result",0.373210256,3.352e-06,0x2D,0x34
"SPI","disable",0.37321360800000003,8e-09,,
"SPI","enable",0.374206888,8e-09,,
"SPI","result",0.374206896,3.36e-06,0x2D,0x87
"SPI","result",0.374210256,3.352e-06,0x2E,0x3B
"SPI","disable",0.37421360800000003,8e-09,,
"SPI","enable",0.375206888,8e-09,,
"SPI","result",0.375206896,3.36e-06,0x2E,0x8A
"SPI","result",0.375210256,3.352e-06,0x2F,0x42
"SPI","disable",0.37521360800000003,8e-09,,
"SPI","enable",0.376206888,8e-09,,
"SPI","result",0.376206896,3.36e-06,0x2F,0x8D
"SPI","result",0.376210256,3.352e-06,0x30,0x49
"SPI","disable",0.37621360800000003,8e-09,,
"SPI","enable",0.377206888,8e-09,,
"SPI","result",0.377206896,3.36e-06,0x30,0x90
"SPI","result",0.377210256,3.352e-06,0x31,0x50
"SPI","disable",0.37721360800000003,8e-09,,
"SPI","enable",0.378206888,8e-09,,
"SPI","result",0.378206896,3.36e-06,0x31,0x93
"SPI","result",0.378210256,3.352e-06,0x32,0x57
"SPI","disable",0.37821360800000003,8e-09,,
"SPI","enable",0.379206888,8e-09,,
"SPI","result",0.379206896,3.36e-06,0x32,0x96
"SPI","result",0.379210256,3.352e-06,0x33,0x5E
"SPI","disable",0.37921360800000004,8e-09,,
"SPI","enable",0.380206888,8e-09,,
"SPI","result",0.380206896,3.36e-06,0x33,0x99
"SPI","result",0.380210256,3.352e-06,0x34,0x65
"SPI","disable",0.38021360800000004,8e-09,,
"SPI","enable",0.381206888,8e-09,,
"SPI","result",0.381206896,3.36e-06,0x34,0x9C
"SPI","result",0.381210256,3.352e-06,0x35,0x6C
"SPI","disable",0.38121360800000004,8e-09,,
"SPI","enable",0.382206888,8e-09,,
"SPI","result",0.382206896,3.36e-06,0x35,0x9F
"SPI","result",0.382210256,3.352e-06,0x36,0x73
"SPI","disable",0.38221360800000004,8e-09,,
"SPI","enable",0.383206888,8e-09,,
"SPI","result",0.383206896,3.36e-06,0x36,0xA2
"SPI","result",0.383210256,3.352e-06,0x37,0x7A
"SPI","disable",0.38321360800000004,8e-09,,
"SPI","enable",0.384206888,8e-09,,
"SPI","result",0.384206896,3.36e-06,0x37,0xA5
"SPI","result",0.384210256,3.352e-06,0x38,0x81
"SPI","disable",0.38421360800000004,8e-09,,
"SPI","enable",0.385206888,8e-09,,
"SPI","result",0.385206896,3.36e-06,0x38,0xA8
"SPI","result",0.38521025600000003,3.352e-06,0x39,0x88
"SPI","disable",0.38521360800000004,8e-09,,
"SPI","enable",0.386206888,8e-09,,
"SPI","result",0.386206896,3.36e-06,0x39,0xAB
"SPI","result",0.38621025600000003,3.352e-06,0x3A,0x8F
"SPI","disable",0.38621360800000004,8e-09,,
"SPI","enable",0.387206888,8e-09,,
"SPI","result",0.387206896,3.36e-06,0x3A,0xAE
"SPI","result",0.38721025600000003,3.352e-06,0x3B,0x96
"SPI","disable",0.38721360800000004,8e-09,,
"SPI","enable",0.388206888,8e-09,,
"SPI","result",0.388206896,3.36e-06,0x3B,0xB1
"SPI","result",0.38821025600000003,3.352e-06,0x3C,0x9D
"SPI","disable",0.38821360800000004,8e-09,,
"SPI","enable",0.38920688800000003,8e-09,,
"SPI","result",0.389206896,3.36e-06,0x3C,0xB4
"SPI","result",0.38921025600000003,3.352e-06,0x3D,0xA4
"SPI","disable",0.38921360800000004,8e-09,,
"SPI","enable",0.39020688800000003,8e-09,,
"SPI","result",0.390206896,3.36e-06,0x3D,0xB7
"SPI","result",0.39021025600000003,3.352e-06,0x3E,0xAB
"SPI","disable",0.39021360800000005,8e-09,,
"SPI","enable",0.39120688800000003,8e-09,,
"SPI","result",0.391206896,3.36e-06,0x3E,0xBA
"SPI","result",0.39121025600000003,3.352e-06,0x3F,0xB2
"SPI","disable",0.39121360800000005,8e-09,,
"SPI","enable",0.39220688800000003,8e-09,,
"SPI","result",0.392206896,3.36e-06,0x3F,0xBD
"SPI","result",0.39221025600000003,3.352e-06,0x40,0xB9
"SPI","disable",0.39221360800000005,8e-09,,
"SPI","enable",0.39320688800000003,8e-09,,
"SPI","result",0.39320689600000003,3.36e-06,0x40,0xC0
"SPI","result",0.39321025600000004,3.352e-06,0x41,0xC0
"SPI","disable",0.39321360800000005,8e-09,,
"SPI","enable",0.39420688800000003,8e-09,,
"SPI","result",0.39420689600000003,3.36e-06,0x41,0xC3
"SPI","result",0.39421025600000004,3.352e-06,0x42,0xC7
"SPI","disable",0.39421360800000005,8e-09,,
"SPI","enable",0.39520688800000003,8e-09,,
"SPI","result",0.39520689600000003,3.36e-06,0x42,0xC6
"SPI","result",0.39521025600000004,3.352e-06,0x43,0xCE
"SPI","disable",0.39521360800000005,8e-09,,
"SPI","enable",0.39620688800000003,8e-09,,
"SPI","result",0.39620689600000003,3.36e-06,0x43,0xC9
"SPI","result",0.39621025600000004,3.352e-06,0x44,0xD5
"SPI","disable",0.39621360800000005,8e-09,,
"SPI","enable",0.39720688800000004,8e-09,,
"SPI","result",0.39720689600000003,3.36e-06,0x44,0xCC
"SPI","result",0.39721025600000004,3.352e-06,0x45,0xDC
"SPI","disable",0.39721360800000005,8e-09,,
"SPI","enable",0.39820688800000004,8e-09,,
"SPI","result",0.39820689600000003,3.36e-06,0x45,0xCF
"SPI","result",0.39821025600000004,3.352e-06,0x46,0xE3
"SPI","disable",0.39821360800000005,8e-09,,
"SPI","enable",0.39920688800000004,8e-09,,
"SPI","result",0.39920689600000003,3.36e-06,0x46,0xD2
"SPI","result",0.39921025600000004,3.352e-06,0x47,0xEA
"SPI","disable",0.39921360800000005,8e-09,,
"SPI","enable",0.40020688800000004,8e-09,,
"SPI","result",0.40020689600000003,3.36e-06,0x47,0xD5
"SPI","result",0.40021025600000004,3.352e-06,0x48,0xF1
"SPI","disable",0.40021360800000005,8e-09,,
"SPI","enable",0.40120688800000004,8e-09,,
"SPI","result",0.40120689600000004,3.36e-06,0x48,0xD8
"SPI","result",0.40121025600000004,3.352e-06,0x49,0xF8
"SPI","disable",0.40121360800000005,8e-09,,
"SPI","enable",0.40220688800000004,8e-09,,
"SPI","result",0.40220689600000004,3.36e-06,0x49,0xDB
"SPI","result",0.40221025600000004,3.352e-06,0x4A,0xFF
"SPI","disable",0.40221360800000006,8e-09,,
"SPI","enable",0.40320688800000004,8e-09,,
"SPI","result",0.40320689600000004,3.36e-06,0x4A,0xDE
"SPI","result",0.40321025600000004,3.352e-06,0x4B,0x6
"SPI","disable",0.40321360800000006,8e-09,,
"SPI","enable",0.40420688800000004,8e-09,,
"SPI","result",0.40420689600000004,3.36e-06,0x4B,0xE1
"SPI","result",0.40421025600000005,3.352e-06,0x4C,0xD
"SPI","disable",0.40421360800000006,8e-09,,
"SPI","enable",0.40520688800000004,8e-09,,
"SPI","result",0.40520689600000004,3.36e-06,0x4C,0xE4
"SPI","result",0.40521025600000005,3.352e-06,0x4D,0x14
"SPI","disable",0.40521360800000006,8e-09,,
"SPI","enable",0.40620688800000004,8e-09,,
"SPI","result",0.40620689600000004,3.36e-06,0x4D,0xE7
"SPI","result",0.40621025600000005,3.352e-06,0x4E,0x1B
"SPI","disable",0.40621360800000006,8e-09,,
"SPI","enable",0.40720688800000004,8e-09,,
"SPI","result",0.40720689600000004,3.36e-06,0x4E,0xEA
"SPI","result",0.40721025600000005,3.352e-06,0x4F,0x22
"SPI","disable",0.40721360800000006,8e-09,,
"SPI","enable",0.40820688800000005,8e-09,,
"SPI","result",0.40820689600000004,3.36e-06,0x4F,0xED
"SPI","result",0.40821025600000005,3.352e-06,0x50,0x29
"SPI","disable",0.40821360800000006,8e-09,,
"SPI","enable",0.40920688800000005,8e-09,,
"SPI","result",0.40920689600000004,3.36e-06,0x50,0xF0
"SPI","result",0.40921025600000005,3.352e-06,0x51,0x30
"SPI","disable",0.40921360800000006,8e-09,,
"SPI","enable",0.41020688800000005,8e-09,,
"SPI","result",0.41020689600000004,3.36e-06,0x51,0xF3
"SPI","result",0.41021025600000005,3.352e-06,0x52,0x37
"SPI","disable",0.41021360800000006,8e-09,,
"SPI","enable",0.41120688800000005,8e-09,,
"SPI","result",0.41120689600000004,3.36e-06,0x52,0xF6
"SPI","result",0.41121025600000005,3.352e-06,0x53,0x3E
"SPI","disable",0.41121360800000006,8e-09,,
"SPI","enable",0.41220688800000005,8e-09,,
"SPI","result",0.41220689600000004,3.36e-06,0x53,0xF9
"SPI","result",0.41221025600000005,3.352e-06,0x54,0x45
"SPI","disable",0.41221360800000006,8e-09,,
"SPI","enable",0.41320688800000005,8e-09,,
"SPI","result",0.41320689600000005,3.36e-06,0x54,0xFC
"SPI","result",0.41321025600000005,3.352e-06,0x55,0x4C
"SPI","disable",0.41321360800000007,8e-09,,
"SPI","enable",0.41420688800000005,8e-09,,
"SPI","result",0.41420689600000005,3.36e-06,0x55,0xFF
"SPI","result",0.41421025600000005,3.352e-06,0x56,0x53
"SPI","disable",0.41421360800000007,8e-09,,
"SPI","enable",0.41520688800000005,8e-09,,
"SPI","result",0.41520689600000005,3.36e-06,0x56,0x2
"SPI","result",0.41521025600000006,3.352e-06,0x57,0x5A
"SPI","disable",0.41521360800000007,8e-09,,
"SPI","enable",0.41620688800000005,8e-09,,
"SPI","result",0.41620689600000005,3.36e-06,0x57,0x5
"SPI","result",0.41621025600000006,3.352e-06,0x58,0x61
"SPI","disable",0.41621360800000007,8e-09,,
"SPI","enable",0.41720688800000005,8e-09,,
"SPI","result",0.41720689600000005,3.36e-06,0x58,0x8
"SPI","result",0.41721025600000006,3.352e-06,0x59,0x68
"SPI","disable",0.41721360800000007,8e-09,,
"SPI","enable",0.41820688800000005,8e-09,,
"SPI","result",0.41820689600000005,3.36e-06,0x59,0xB
"SPI","result",0.41821025600000006,3.352e-06,0x5A,0x6F
"SPI","disable",0.41821360800000007,8e-09,,
"SPI","enable",0.41920688800000006,8e-09,,
"SPI","result",0.41920689600000005,3.36e-06,0x5A,0xE
"SPI","result",0.41921025600000006,3.352e-06,0x5B,0x76
"SPI","disable",0.41921360800000007,8e-09,,
"SPI","enable",0.42020688800000006,8e-09,,
"SPI","result",0.42020689600000005,3.36e-06,0x5B,0x11
"SPI","result",0.42021025600000006,3.352e-06,0x5C,0x7D
"SPI","disable",0.42021360800000007,8e-09,,
"SPI","enable",0.42120688800000006,8e-09,,
"SPI","result",0.42120689600000005,3.36e-06,0x5C,0x14
"SPI","result",0.42121025600000006,3.352e-06,0x5D,0x84
"SPI","disable",0.4212136080000001,8e-09,,
"SPI","enable",0.42220688800000006,8e-09,,
"SPI","result",0.42220689600000005,3.36e-06,0x5D,0x17
"SPI","result",0.42221025600000006,3.352e-06,0x5E,0x8B
"SPI","disable",0.4222136080000001,8e-09,,
"SPI","enable",0.42320688800000006,8e-09,,
"SPI","result",0.42320689600000005,3.36e-06,0x5E,0x1A
"SPI","result",0.42321025600000006,3.352e-06,0x5F,0x92
"SPI","disable",0.4232136080000001,8e-09,,
"SPI","enable",0.42420688800000006,8e-09,,
"SPI","result",0.42420689600000006,3.36e-06,0x5F,0x1D
"SPI","result",0.42421025600000006,3.352e-06,0x60,0x99
"SPI","disable",0.4242136080000001,8e-09,,
"SPI","enable",0.42520688800000006,8e-09,,
"SPI","result",0.42520689600000006,3.36e-06,0x60,0x20
"SPI","result",0.42521025600000006,3.352e-06,0x61,0xA0
"SPI","disable",0.4252136080000001,8e-09,,
"SPI","enable",0.42620688800000006,8e-09,,
"SPI","result",0.42620689600000006,3.36e-06,0x61,0x23
"SPI","result",0.42621025600000007,3.352e-06,0x62,0xA7
"SPI","disable",0.4262136080000001,8e-09,,
"SPI","enable",0.42720688800000006,8e-09,,
"SPI","result",0.42720689600000006,3.36e-06,0x62,0x26
"SPI","result",0.42721025600000007,3.352e-06,0x63,0xAE
"SPI","disable",0.4272136080000001,8e-09,,
"SPI","enable",0.42820688800000006,8e-09,,
"SPI","result",0.42820689600000006,3.36e-06,0x63,0x29
"SPI","result",0.42821025600000007,3.352e-06,0x64,0xB5
"SPI","disable",0.4282136080000001,8e-09,,
"SPI","enable",0.42920688800000006,8e-09,,
"SPI","result",0.42920689600000006,3.36e-06,0x64,0x2C
"SPI","result",0.42921025600000007,3.352e-06,0x65,0xBC
"SPI","disable",0.4292136080000001,8e-09,,
"SPI","enable",0.43020688800000007,8e-09,,
"SPI","result",0.43020689600000006,3.36e-06,0x65,0x2F
"SPI","result",0.43021025600000007,3.352e-06,0x66,0xC3
"SPI","disable",0.4302136080000001,8e-09,,
"SPI","enable",0.43120688800000007,8e-09,,
"SPI","result",0.43120689600000006,3.36e-06,0x66,0x32
"SPI","result",0.43121025600000007,3.352e-06,0x67,0xCA
"SPI","disable",0.4312136080000001,8e-09,,
"SPI","enable",0.43220688800000007,8e-09,,
"SPI","result",0.43220689600000006,3.36e-06,0x67,0x35
"SPI","result",0.43221025600000007,3.352e-06,0x68,0xD1
"SPI","disable",0.4322136080000001,8e-09,,
"SPI","enable",0.43320688800000007,8e-09,,
"SPI","result",0.43320689600000006,3.36e-06,0x68,0x38
"SPI","result",0.43321025600000007,3.352e-06,0x69,0xD8
"SPI","disable",0.4332136080000001,8e-09,,
"SPI","enable",0.43420688800000007,8e-09,,
"SPI","result",0.43420689600000006,3.36e-06,0x69,0x3B
"SPI","result",0.43421025600000007,3.352e-06,0x6A,0xDF
"SPI","disable",0.4342136080000001,8e-09,,
"SPI","enable",0.43520688800000007,8e-09,,
"SPI","result",0.43520689600000007,3.36e-06,0x6A,0x3E
"SPI","result",0.4352102560000001,3.352e-06,0x6B,0xE6
"SPI","disable",0.4352136080000001,8e-09,,
"SPI","enable",0.43620688800000007,8e-09,,
"SPI","result",0.43620689600000007,3.36e-06,0x6B,0x41
"SPI","result",0.4362102560000001,3.352e-06,0x6C,0xED
"SPI","disable",0.4362136080000001,8e-09,,
"SPI","enable",0.43720688800000007,8e-09,,
"SPI","result",0.43720689600000007,3.36e-06,0x6C,0x44
"SPI","result",0.4372102560000001,3.352e-06,0x6D,0xF4
"SPI","disable",0.4372136080000001,8e-09,,
"SPI","enable",0.43820688800000007,8e-09,,
"SPI","result",0.43820689600000007,3.36e-06,0x6D,0x47
"SPI","result",0.4382102560000001,3.352e-06,0x6E,0xFB
"SPI","disable",0.4382136080000001,8e-09,,
"SPI","enable",0.4392068880000001,8e-09,,
"SPI","result",0.43920689600000007,3.36e-06,0x6E,0x4A
"SPI","result",0.4392102560000001,3.352e-06,0x6F,0x2
"SPI","disable",0.4392136080000001,8e-09,,
"SPI","enable",0.4402068880000001,8e-09,,
"SPI","result",0.44020689600000007,3.36e-06,0x6F,0x4D
"SPI","result",0.4402102560000001,3.352e-06,0x70,0x9
"SPI","disable",0.4402136080000001,8e-09,,
"SPI","enable",0.4412068880000001,8e-09,,
"SPI","result",0.44120689600000007,3.36e-06,0x70,0x50
"SPI","result",0.4412102560000001,3.352e-06,0x71,0x10
"SPI","disable",0.4412136080000001,8e-09,,
"SPI","enable",0.4422068880000001,8e-09,,
"SPI","result",0.44220689600000007,3.36e-06,0x71,0x53
"SPI","result",0.4422102560000001,3.352e-06,0x72,0x17
"SPI","disable",0.4422136080000001,8e-09,,
"SPI","enable",0.4432068880000001,8e-09,,
"SPI","result",0.4432068960000001,3.36e-06,0x72,0x56
"SPI","result",0.4432102560000001,3.352e-06,0x73,0x1E
"SPI","disable",0.4432136080000001,8e-09,,
"SPI","enable",0.4442068880000001,8e-09,,
"SPI","result",0.4442068960000001,3.36e-06,0x73,0x59
"SPI","result",0.4442102560000001,3.352e-06,0x74,0x25
"SPI","disable",0.4442136080000001,8e-09,,
"SPI","enable",0.4452068880000001,8e-09,,
"SPI","result",0.4452068960000001,3.36e-06,0x74,0x5C
"SPI","result",0.4452102560000001,3.352e-06,0x75,0x2C
"SPI","disable",0.4452136080000001,8e-09,,
"SPI","enable",0.4462068880000001,8e-09,,
"SPI","result",0.4462068960000001,3.36e-06,0x75,0x5F
"SPI","result",0.4462102560000001,3.352e-06,0x76,0x33
"SPI","disable",0.4462136080000001,8e-09,,
"SPI","enable",0.4472068880000001,8e-09,,
"SPI","result",0.4472068960000001,3.36e-06,0x76,0x62
"SPI","result",0.4472102560000001,3.352e-06,0x77,0x3A
"SPI","disable",0.4472136080000001,8e-09,,
"SPI","enable",0.4482068880000001,8e-09,,
"SPI","result",0.4482068960000001,3.36e-06,0x77,0x65
"SPI","result",0.4482102560000001,3.352e-06,0x78,0x41
"SPI","disable",0.4482136080000001,8e-09,,
"SPI","enable",0.4492068880000001,8e-09,,
"SPI","result",0.4492068960000001,3.36e-06,0x78,0x68
"SPI","result",0.4492102560000001,3.352e-06,0x79,0x48
"SPI","disable",0.4492136080000001,8e-09,,
"SPI","enable",0.4502068880000001,8e-09,,
"SPI","result",0.4502068960000001,3.36e-06,0x79,0x6B
"SPI","result",0.4502102560000001,3.352e-06,0x7A,0x4F
"SPI","disable",0.4502136080000001,8e-09,,
"SPI","enable",0.4512068880000001,8e-09,,
"SPI","result",0.4512068960000001,3.36e-06,0x7A,0x6E
"SPI","result",0.4512102560000001,3.352e-06,0x7B,0x56
"SPI","disable",0.4512136080000001,8e-09,,
"SPI","enable",0.4522068880000001,8e-09,,
"SPI","result",0.4522068960000001,3.36e-06,0x7B,0x71
"SPI","result",0.4522102560000001,3.352e-06,0x7C,0x5D
"SPI","disable",0.4522136080000001,8e-09,,
"SPI","enable",0.4532068880000001,8e-09,,
"SPI","result",0.4532068960000001,3.36e-06,0x7C,0x74
"SPI","result",0.4532102560000001,3.352e-06,0x7D,0x64
"SPI","disable",0.4532136080000001,8e-09,,
"SPI","enable",0.4542068880000001,8e-09,,
"SPI","result",0.4542068960000001,3.36e-06,0x7D,0x77
"SPI","result",0.4542102560000001,3.352e-06,0x7E,0x6B
"SPI","disable",0.4542136080000001,8e-09,,
"SPI","enable",0.4552068880000001,8e-09,,
"SPI","result",0.4552068960000001,3.36e-06,0x7E,0x7A
"SPI","result",0.4552102560000001,3.352e-06,0x7F,0x72
"SPI","disable",0.4552136080000001,8e-09,,
"SPI","enable",0.4562068880000001,8e-09,,
"SPI","result",0.4562068960000001,3.36e-06,0x7F,0x7D
"SPI","result",0.4562102560000001,3.352e-06,0x80,0x79
"SPI","disable",0.4562136080000001,8e-09,,
"SPI","enable",0.4572068880000001,8e-09,,
"SPI","result",0.4572068960000001,3.36e-06,0x80,0x80
"SPI","result",0.4572102560000001,3.352e-06,0x81,0x80
"SPI","disable",0.4572136080000001,8e-09,,
"SPI","enable",0.4582068880000001,8e-09,,
"SPI","result",0.4582068960000001,3.36e-06,0x81,0x83
"SPI","result",0.4582102560000001,3.352e-06,0x82,0x87
"SPI","disable",0.4582136080000001,8e-09,,
"SPI","enable",0.4592068880000001,8e-09,,
"SPI","result",0.4592068960000001,3.36e-06,0x82,0x86
"SPI","result",0.4592102560000001,3.352e-06,0x83,0x8E
"SPI","disable",0.4592136080000001,8e-09,,
"SPI","enable",0.4602068880000001,8e-09,,
"SPI","result",0.4602068960000001,3.36e-06,0x83,0x89
"SPI","result",0.4602102560000001,3.352e-06,0x84,0x95
"SPI","disable",0.4602136080000001,8e-09,,
"SPI","enable",0.4612068880000001,8e-09,,
"SPI","result",0.4612068960000001,3.36e-06,0x84,0x8C
"SPI","result",0.4612102560000001,3.352e-06,0x85,0x9C
"SPI","disable",0.4612136080000001,8e-09,,
"SPI","enable",0.4622068880000001,8e-09,,
"SPI","result",0.4622068960000001,3.36e-06,0x85,0x8F
"SPI","result",0.4622102560000001,3.352e-06,0x86,0xA3
"SPI","disable",0.4622136080000001,8e-09,,
"SPI","enable",0.4632068880000001,8e-09,,
"SPI","result",0.4632068960000001,3.36e-06,0x86,0x92
"SPI","result",0.4632102560000001,3.352e-06,0x87,0xAA
"SPI","disable",0.4632136080000001,8e-09,,
"SPI","enable",0.4642068880000001,8e-09,,
"SPI","result",0.4642068960000001,3.36e-06,0x87,0x95
"SPI","result",0.4642102560000001,3.352e-06,0x88,0xB1
"SPI","disable",0.4642136080000001,8e-09,,
"SPI","enable",0.4652068880000001,8e-09,,
"SPI","result",0.4652068960000001,3.36e-06,0x88,0x98
"SPI","result",0.4652102560000001,3.352e-06,0x89,0xB8
"SPI","disable",0.4652136080000001,8e-09,,
"SPI","enable",0.4662068880000001,8e-09,,
"SPI","result",0.4662068960000001,3.36e-06,0x89,0x9B
"SPI","result",0.4662102560000001,3.352e-06,0x8A,0xBF
"SPI","disable",0.4662136080000001,8e-09,,
"SPI","enable",0.4672068880000001,8e-09,,
"SPI","result",0.4672068960000001,3.36e-06,0x8A,0x9E
"SPI","result",0.4672102560000001,3.352e-06,0x8B,0xC6
"SPI","disable",0.4672136080000001,8e-09,,
"SPI","enable",0.4682068880000001,8e-09,,
"SPI","result",0.4682068960000001,3.36e-06,0x8B,0xA1
"SPI","result",0.4682102560000001,3.352e-06,0x8C,0xCD
"SPI","disable",0.4682136080000001,8e-09,,
"SPI","enable",0.4692068880000001,8e-09,,
"SPI","result",0.4692068960000001,3.36e-06,0x8C,0xA4
"SPI","result",0.4692102560000001,3.352e-06,0x8D,0xD4
"SPI","disable",0.4692136080000001,8e-09,,
"SPI","enable",0.4702068880000001,8e-09,,
"SPI","result",0.4702068960000001,3.36e-06,0x8D,0xA7
"SPI","result",0.4702102560000001,3.352e-06,0x8E,0xDB
"SPI","disable",0.4702136080000001,8e-09,,
"SPI","enable",0.4712068880000001,8e-09,,
"SPI","result",0.4712068960000001,3.36e-06,0x8E,0xAA
"SPI","result",0.4712102560000001,3.352e-06,0x8F,0xE2
"SPI","disable",0.4712136080000001,8e-09,,
"SPI","enable",0.4722068880000001,8e-09,,
"SPI","result",0.4722068960000001,3.36e-06,0x8F,0xAD
"SPI","result",0.4722102560000001,3.352e-06,0x90,0xE9
"SPI","disable",0.4722136080000001,8e-09,,
"SPI","enable",0.4732068880000001,8e-09,,
"SPI","result",0.4732068960000001,3.36e-06,0x90,0xB0
"SPI","result",0.4732102560000001,3.352e-06,0x91,0xF0
"SPI","disable",0.4732136080000001,8e-09,,
"SPI","enable",0.4742068880000001,8e-09,,
"SPI","result",0.4742068960000001,3.36e-06,0x91,0xB3
"SPI","result",0.4742102560000001,3.352e-06,0x92,0xF7
"SPI","disable",0.4742136080000001,8e-09,,
"SPI","enable",0.4752068880000001,8e-09,,
"SPI","result",0.4752068960000001,3.36e-06,0x92,0xB6
"SPI","result",0.4752102560000001,3.352e-06,0x93,0xFE
"SPI","disable",0.4752136080000001,8e-09,,
"SPI","enable",0.4762068880000001,8e-09,,
"SPI","result",0.4762068960000001,3.36e-06,0x93,0xB9
"SPI","result",0.4762102560000001,3.352e-06,0x94,0x5
"SPI","disable",0.4762136080000001,8e-09,,
"SPI","enable",0.4772068880000001,8e-09,,
"SPI","result",0.4772068960000001,3.36e-06,0x94,0xBC
"SPI","result",0.4772102560000001,3.352e-06,0x95,0xC
"SPI","disable",0.4772136080000001,8e-09,,
"SPI","enable",0.4782068880000001,8e-09,,
"SPI","result",0.4782068960000001,3.36e-06,0x95,0xBF
"SPI","result",0.4782102560000001,3.352e-06,0x96,0x13
"SPI","disable",0.4782136080000001,8e-09,,
"SPI","enable",0.4792068880000001,8e-09,,
"SPI","result",0.4792068960000001,3.36e-06,0x96,0xC2
"SPI","result",0.4792102560000001,3.352e-06,0x97,0x1A
"SPI","disable",0.4792136080000001,8e-09,,
"SPI","enable",0.4802068880000001,8e-09,,
"SPI","result",0.4802068960000001,3.36e-06,0x97,0xC5
"SPI","result",0.4802102560000001,3.352e-06,0x98,0x21
"SPI","disable",0.4802136080000001,8e-09,,
"SPI","enable",0.4812068880000001,8e-09,,
"SPI","result",0.4812068960000001,3.36e-06,0x98,0xC8
"SPI","result",0.4812102560000001,3.352e-06,0x99,0x28
"SPI","disable",0.4812136080000001,8e-09,,
"SPI","enable",0.4822068880000001,8e-09,,
"SPI","result",0.4822068960000001,3.36e-06,0x99,0xCB
"SPI","result",0.4822102560000001,3.352e-06,0x9A,0x2F
"SPI","disable",0.4822136080000001,8e-09,,
"SPI","enable",0.4832068880000001,8e-09,,
"SPI","result",0.4832068960000001,3.36e-06,0x9A,0xCE
"SPI","result",0.4832102560000001,3.352e-06,0x9B,0x36
"SPI","disable",0.4832136080000001,8e-09,,
"SPI","enable",0.4842068880000001,8e-09,,
"SPI","result",0.4842068960000001,3.36e-06,0x9B,0xD1
"SPI","result",0.4842102560000001,3.352e-06,0x9C,0x3D
"SPI","disable",0.48421360800000013,8e-09,,
"SPI","enable",0.4852068880000001,8e-09,,
"SPI","result",0.4852068960000001,3.36e-06,0x9C,0xD4
"SPI","result",0.4852102560000001,3.352e-06,0x9D,0x44
"SPI","disable",0.48521360800000013,8e-09,,
"SPI","enable",0.4862068880000001,8e-09,,
"SPI","result",0.4862068960000001,3.36e-06,0x9D,0xD7
"SPI","result",0.4862102560000001,3.352e-06,0x9E,0x4B
"SPI","disable",0.48621360800000013,8e-09,,
"SPI","enable",0.4872068880000001,8e-09,,
"SPI","result",0.4872068960000001,3.36e-06,0x9E,0xDA
"SPI","result",0.4872102560000001,3.352e-06,0x9F,0x52
"SPI","disable",0.48721360800000013,8e-09,,
"SPI","enable",0.4882068880000001,8e-09,,
"SPI","result",0.4882068960000001,3.36e-06,0x9F,0xDD
"SPI","result",0.4882102560000001,3.352e-06,0xA0,0x59
"SPI","disable",0.48821360800000013,8e-09,,
"SPI","enable",0.4892068880000001,8e-09,,
"SPI","result",0.4892068960000001,3.36e-06,0xA0,0xE0
"SPI","result",0.4892102560000001,3.352e-06,0xA1,0x60
"SPI","disable",0.48921360800000013,8e-09,,
"SPI","enable",0.4902068880000001,8e-09,,
"SPI","result",0.4902068960000001,3.36e-06,0xA1,0xE3
"SPI","result",0.4902102560000001,3.352e-06,0xA2,0x67
"SPI","disable",0.49021360800000013,8e-09,,
"SPI","enable",0.4912068880000001,8e-09,,
"SPI","result",0.4912068960000001,3.36e-06,0xA2,0xE6
"SPI","result",0.4912102560000001,3.352e-06,0xA3,0x6E
"SPI","disable",0.49121360800000013,8e-09,,
"SPI","enable",0.4922068880000001,8e-09,,
"SPI","result",0.4922068960000001,3.36e-06,0xA3,0xE9
"SPI","result",0.4922102560000001,3.352e-06,0xA4,0x75
"SPI","disable",0.49221360800000014,8e-09,,
"SPI","enable",0.4932068880000001,8e-09,,
"SPI","result",0.4932068960000001,3.36e-06,0xA4,0xEC
"SPI","result",0.4932102560000001,3.352e-06,0xA5,0x7C
"SPI","disable",0.49321360800000014,8e-09,,
"SPI","enable",0.4942068880000001,8e-09,,
"SPI","result",0.4942068960000001,3.36e-06,0xA5,0xEF
"SPI","result",0.4942102560000001,3.352e-06,0xA6,0x83
"SPI","disable",0.49421360800000014,8e-09,,
"SPI","enable",0.4952068880000001,8e-09,,
"SPI","result",0.4952068960000001,3.36e-06,0xA6,0xF2
"SPI","result",0.4952102560000001,3.352e-06,0xA7,0x8A
"SPI","disable",0.49521360800000014,8e-09,,
"SPI","enable",0.4962068880000001,8e-09,,
"SPI","result",0.4962068960000001,3.36e-06,0xA7,0xF5
"SPI","result",0.4962102560000001,3.352e-06,0xA8,0x91
"SPI","disable",0.49621360800000014,8e-09,,
"SPI","enable",0.4972068880000001,8e-09,,
"SPI","result",0.4972068960000001,3.36e-06,0xA8,0xF8
"SPI","result",0.49721025600000013,3.352e-06,0xA9,0x98
"SPI","disable",0.49721360800000014,8e-09,,
"SPI","enable",0.4982068880000001,8e-09,,
"SPI","result",0.4982068960000001,3.36e-06,0xA9,0xFB
"SPI","result",0.49821025600000013,3.352e-06,0xAA,0x9F
"SPI","disable",0.49821360800000014,8e-09,,
"SPI","enable",0.4992068880000001,8e-09,,
"SPI","result",0.4992068960000001,3.36e-06,0xAA,0xFE
"SPI","result",0.49921025600000013,3.352e-06,0xAB,0xA6
"SPI","disable",0.49921360800000014,8e-09,,
"SPI","enable",0.5002068880000001,8e-09,,
"SPI","result",0.5002068960000001,3.36e-06,0xAB,0x1
"SPI","result",0.5002102560000001,3.352e-06,0xAC,0xAD
"SPI","disable",0.5002136080000001,8e-09,,
"SPI","enable",0.5012068880000001,8e-09,,
"SPI","result",0.5012068960000001,3.36e-06,0xAC,0x4
"SPI","result",0.5012102560000001,3.352e-06,0xAD,0xB4
"SPI","disable",0.5012136080000001,8e-09,,
"SPI","enable",0.5022068880000001,8e-09,,
"SPI","result",0.5022068960000001,3.36e-06,0xAD,0x7
"SPI","result",0.5022102560000001,3.352e-06,0xAE,0xBB
"SPI","disable",0.5022136080000001,8e-09,,
"SPI","enable",0.5032068880000001,8e-09,,
"SPI","result",0.5032068960000001,3.36e-06,0xAE,0xA
"SPI","result",0.5032102560000001,3.352e-06,0xAF,0xC2
"SPI","disable",0.5032136080000001,8e-09,,
"SPI","enable",0.5042068880000001,8e-09,,
"SPI","result",0.5042068960000001,3.36e-06,0xAF,0xD
"SPI","result",0.5042102560000001,3.352e-06,0xB0,0xC9
"SPI","disable",0.5042136080000001,8e-09,,
"SPI","enable",0.5052068880000001,8e-09,,
"SPI","result",0.5052068960000001,3.36e-06,0xB0,0x10
"SPI","result",0.5052102560000001,3.352e-06,0xB1,0xD0
"SPI","disable",0.5052136080000001,8e-09,,
"SPI","enable",0.5062068880000001,8e-09,,
"SPI","result",0.5062068960000001,3.36e-06,0xB1,0x13
"SPI","result",0.5062102560000001,3.352e-06,0xB2,0xD7
"SPI","disable",0.5062136080000001,8e-09,,
"SPI","enable",0.5072068880000001,8e-09,,
"SPI","result",0.5072068960000001,3.36e-06,0xB2,0x16
"SPI","result",0.5072102560000001,3.352e-06,0xB3,0xDE
"SPI","disable",0.5072136080000001,8e-09,,
"SPI","enable",0.5082068880000001,8e-09,,
"SPI","result",0.5082068960000001,3.36e-06,0xB3,0x19
"SPI","result",0.5082102560000001,3.352e-06,0xB4,0xE5
"SPI","disable",0.5082136080000001,8e-09,,
"SPI","enable",0.5092068880000001,8e-09,,
"SPI","result",0.5092068960000001,3.36e-06,0xB4,0x1C
"SPI","result",0.5092102560000001,3.352e-06,0xB5,0xEC
"SPI","disable",0.5092136080000002,8e-09,,
"SPI","enable",0.5102068880000001,8e-09,,
"SPI","result",0.5102068960000001,3.36e-06,0xB5,0x1F
"SPI","result",0.5102102560000001,3.352e-06,0xB6,0xF3
"SPI","disable",0.5102136080000002,8e-09,,
"SPI","enable",0.5112068880000001,8e-09,,
"SPI","result",0.5112068960000001,3.36e-06,0xB6,0x22
"SPI","result",0.5112102560000001,3.352e-06,0xB7,0xFA
"SPI","disable",0.5112136080000002,8e-09,,
"SPI","enable",0.5122068880000001,8e-09,,
"SPI","result",0.5122068960000001,3.36e-06,0xB7,0x25
"SPI","result",0.5122102560000001,3.352e-06,0xB8,0x1
"SPI","disable",0.5122136080000002,8e-09,,
"SPI","enable",0.5132068880000001,8e-09,,
"SPI","result",0.5132068960000001,3.36e-06,0xB8,0x28
"SPI","result",0.5132102560000001,3.352e-06,0xB9,0x8
"SPI","disable",0.5132136080000002,8e-09,,
"SPI","enable",0.5142068880000001,8e-09,,
"SPI","result",0.5142068960000001,3.36e-06,0xB9,0x2B
"SPI","result",0.5142102560000001,3.352e-06,0xBA,0xF
"SPI","disable",0.5142136080000002,8e-09,,
"SPI","enable",0.5152068880000001,8e-09,,
"SPI","result",0.5152068960000001,3.36e-06,0xBA,0x2E
"SPI","result",0.5152102560000001,3.352e-06,0xBB,0x16
"SPI","disable",0.5152136080000002,8e-09,,
"SPI","enable",0.5162068880000001,8e-09,,
"SPI","result",0.5162068960000001,3.36e-06,0xBB,0x31
"SPI","result",0.5162102560000001,3.352e-06,0xBC,0x1D
"SPI","disable",0.5162136080000002,8e-09,,
"SPI","enable",0.5172068880000001,8e-09,,
"SPI","result",0.5172068960000001,3.36e-06,0xBC,0x34
"SPI","result",0.5172102560000001,3.352e-06,0xBD,0x24
"SPI","disable",0.5172136080000002,8e-09,,
"SPI","enable",0.5182068880000001,8e-09,,
"SPI","result",0.5182068960000001,3.36e-06,0xBD,0x37
"SPI","result",0.5182102560000001,3.352e-06,0xBE,0x2B
"SPI","disable",0.5182136080000002,8e-09,,
"SPI","enable",0.5192068880000001,8e-09,,
"SPI","result",0.5192068960000001,3.36e-06,0xBE,0x3A
"SPI","result",0.5192102560000001,3.352e-06,0xBF,0x32
"SPI","disable",0.5192136080000002,8e-09,,
"SPI","enable",0.5202068880000001,8e-09,,
"SPI","result",0.5202068960000001,3.36e-06,0xBF,0x3D
"SPI","result",0.5202102560000001,3.352e-06,0xC0,0x39
"SPI","disable",0.5202136080000002,8e-09,,
"SPI","enable",0.5212068880000001,8e-09,,
"SPI","result",0.5212068960000001,3.36e-06,0xC0,0x40
"SPI","result",0.5212102560000001,3.352e-06,0xC1,0x40
"SPI","disable",0.5212136080000002,8e-09,,
"SPI","enable",0.5222068880000001,8e-09,,
"SPI","result",0.5222068960000001,3.36e-06,0xC1,0x43
"SPI","result",0.5222102560000002,3.352e-06,0xC2,0x47
"SPI","disable",0.5222136080000002,8e-09,,
"SPI","enable",0.5232068880000001,8e-09,,
"SPI","result",0.5232068960000001,3.36e-06,0xC2,0x46
"SPI","result",0.5232102560000002,3.352e-06,0xC3,0x4E
"SPI","disable",0.5232136080000002,8e-09,,
"SPI","enable",0.5242068880000001,8e-09,,
"SPI","result",0.5242068960000001,3.36e-06,0xC3,0x49
"SPI","result",0.5242102560000002,3.352e-06,0xC4,0x55
"SPI","disable",0.5242136080000002,8e-09,,
"SPI","enable",0.5252068880000001,8e-09,,
"SPI","result",0.5252068960000001,3.36e-06,0xC4,0x4C
"SPI","result",0.5252102560000002,3.352e-06,0xC5,0x5C
"SPI","disable",0.5252136080000002,8e-09,,
"SPI","enable",0.5262068880000002,8e-09,,
"SPI","result",0.5262068960000001,3.36e-06,0xC5,0x4F
"SPI","result",0.5262102560000002,3.352e-06,0xC6,0x63
"SPI","disable",0.5262136080000002,8e-09,,
"SPI","enable",0.5272068880000002,8e-09,,
"SPI","result",0.5272068960000001,3.36e-06,0xC6,0x52
"SPI","result",0.5272102560000002,3.352e-06,0xC7,0x6A
"SPI","disable",0.5272136080000002,8e-09,,
"SPI","enable",0.5282068880000002,8e-09,,
"SPI","result",0.5282068960000001,3.36e-06,0xC7,0x55
"SPI","result",0.5282102560000002,3.352e-06,0xC8,0x71
"SPI","disable",0.5282136080000002,8e-09,,
"SPI","enable",0.5292068880000002,8e-09,,
"SPI","result",0.5292068960000001,3.36e-06,0xC8,0x58
"SPI","result",0.5292102560000002,3.352e-06,0xC9,0x78
"SPI","disable",0.5292136080000002,8e-09,,
"SPI","enable",0.5302068880000002,8e-09,,
"SPI","result",0.5302068960000001,3.36e-06,0xC9,0x5B
"SPI","result",0.5302102560000002,3.352e-06,0xCA,0x7F
"SPI","disable",0.5302136080000002,8e-09,,
"SPI","enable",0.5312068880000002,8e-09,,
"SPI","result",0.5312068960000002,3.36e-06,0xCA,0x5E
"SPI","result",0.5312102560000002,3.352e-06,0xCB,0x86
"SPI","disable",0.5312136080000002,8e-09,,
"SPI","enable",0.5322068880000002,8e-09,,
"SPI","result",0.5322068960000002,3.36e-06,0xCB,0x61
"SPI","result",0.5322102560000002,3.352e-06,0xCC,0x8D
"SPI","disable",0.5322136080000002,8e-09,,
"SPI","enable",0.5332068880000002,8e-09,,
"SPI","result",0.5332068960000002,3.36e-06,0xCC,0x64
"SPI","result",0.5332102560000002,3.352e-06,0xCD,0x94
"SPI","disable",0.5332136080000002,8e-09,,
"SPI","enable",0.5342068880000002,8e-09,,
"SPI","result",0.5342068960000002,3.36e-06,0xCD,0x67
"SPI","result",0.5342102560000002,3.352e-06,0xCE,0x9B
"SPI","disable",0.5342136080000002,8e-09,,
"SPI","enable",0.5352068880000002,8e-09,,
"SPI","result",0.5352068960000002,3.36e-06,0xCE,0x6A
"SPI","result",0.5352102560000002,3.352e-06,0xCF,0xA2
"SPI","disable",0.5352136080000002,8e-09,,
"SPI","enable",0.5362068880000002,8e-09,,
"SPI","result",0.5362068960000002,3.36e-06,0xCF,0x6D
"SPI","result",0.5362102560000002,3.352e-06,0xD0,0xA9
"SPI","disable",0.5362136080000002,8e-09,,
"SPI","enable",0.5372068880000002,8e-09,,
"SPI","result",0.5372068960000002,3.36e-06,0xD0,0x70
"SPI","result",0.5372102560000002,3.352e-06,0xD1,0xB0
"SPI","disable",0.5372136080000002,8e-09,,
"SPI","enable",0.5382068880000002,8e-09,,
"SPI","result",0.5382068960000002,3.36e-06,0xD1,0x73
"SPI","result",0.5382102560000002,3.352e-06,0xD2,0xB7
"SPI","disable",0.5382136080000002,8e-09,,
"SPI","enable",0.5392068880000002,8e-09,,
"SPI","result",0.5392068960000002,3.36e-06,0xD2,0x76
"SPI","result",0.5392102560000002,3.352e-06,0xD3,0xBE
"SPI","disable",0.5392136080000002,8e-09,,
"SPI","enable",0.5402068880000002,8e-09,,
"SPI","result",0.5402068960000002,3.36e-06,0xD3,0x79
"SPI","result",0.5402102560000002,3.352e-06,0xD4,0xC5
"SPI","disable",0.5402136080000002,8e-09,,
"SPI","enable",0.5412068880000002,8e-09,,
"SPI","result",0.5412068960000002,3.36e-06,0xD4,0x7C
"SPI","result",0.5412102560000002,3.352e-06,0xD5,0xCC
"SPI","disable",0.5412136080000002,8e-09,,
"SPI","enable",0.5422068880000002,8e-09,,
"SPI","result",0.5422068960000002,3.36e-06,0xD5,0x7F
"SPI","result",0.5422102560000002,3.352e-06,0xD6,0xD3
"SPI","disable",0.5422136080000002,8e-09,,
"SPI","enable",0.5432068880000002,8e-09,,
"SPI","result",0.5432068960000002,3.36e-06,0xD6,0x82
"SPI","result",0.5432102560000002,3.352e-06,0xD7,0xDA
"SPI","disable",0.5432136080000002,8e-09,,
"SPI","enable",0.5442068880000002,8e-09,,
"SPI","result",0.5442068960000002,3.36e-06,0xD7,0x85
"SPI","result",0.5442102560000002,3.352e-06,0xD8,0xE1
"SPI","disable",0.5442136080000002,8e-09,,
"SPI","enable",0.5452068880000002,8e-09,,
"SPI","result",0.5452068960000002,3.36e-06,0xD8,0x88
"SPI","result",0.5452102560000002,3.352e-06,0xD9,0xE8
"SPI","disable",0.5452136080000002,8e-09,,
"SPI","enable",0.5462068880000002,8e-09,,
"SPI","result",0.5462068960000002,3.36e-06,0xD9,0x8B
"SPI","result",0.5462102560000002,3.352e-06,0xDA,0xEF
"SPI","disable",0.5462136080000002,8e-09,,
"SPI","enable",0.5472068880000002,8e-09,,
"SPI","result",0.5472068960000002,3.36e-06,0xDA,0x8E
"SPI","result",0.5472102560000002,3.352e-06,0xDB,0xF6
"SPI","disable",0.5472136080000002,8e-09,,
"SPI","enable",0.5482068880000002,8e-09,,
"SPI","result",0.5482068960000002,3.36e-06,0xDB,0x91
"SPI","result",0.5482102560000002,3.352e-06,0xDC,0xFD
"SPI","disable",0.5482136080000002,8e-09,,
"SPI","enable",0.5492068880000002,8e-09,,
"SPI","result",0.5492068960000002,3.36e-06,0xDC,0x94
"SPI","result",0.5492102560000002,3.352e-06,0xDD,0x4
"SPI","disable",0.5492136080000002,8e-09,,
"SPI","enable",0.5502068880000002,8e-09,,
"SPI","result",0.5502068960000002,3.36e-06,0xDD,0x97
"SPI","result",0.5502102560000002,3.352e-06,0xDE,0xB
"SPI","disable",0.5502136080000002,8e-09,,
"SPI","enable",0.5512068880000002,8e-09,,
"SPI","result",0.5512068960000002,3.36e-06,0xDE,0x9A
"SPI","result",0.5512102560000002,3.352e-06,0xDF,0x12
"SPI","disable",0.5512136080000002,8e-09,,
"SPI","enable",0.5522068880000002,8e-09,,
"SPI","result",0.5522068960000002,3.36e-06,0xDF,0x9D
"SPI","result",0.5522102560000002,3.352e-06,0xE0,0x19
"SPI","disable",0.5522136080000002,8e-09,,
"SPI","enable",0.5532068880000002,8e-09,,
"SPI","result",0.5532068960000002,3.36e-06,0xE0,0xA0
"SPI","result",0.5532102560000002,3.352e-06,0xE1,0x20
"SPI","disable",0.5532136080000002,8e-09,,
"SPI","enable",0.5542068880000002,8e-09,,
"SPI","result",0.5542068960000002,3.36e-06,0xE1,0xA3
"SPI","result",0.5542102560000002,3.352e-06,0xE2,0x27
"SPI","disable",0.5542136080000002,8e-09,,
"SPI","enable",0.5552068880000002,8e-09,,
"SPI","result",0.5552068960000002,3.36e-06,0xE2,0xA6
"SPI","result",0.5552102560000002,3.352e-06,0xE3,0x2E
"SPI","disable",0.5552136080000002,8e-09,,
"SPI","enable",0.5562068880000002,8e-09,,
"SPI","result",0.5562068960000002,3.36e-06,0xE3,0xA9
"SPI","result",0.5562102560000002,3.352e-06,0xE4,0x35
"SPI","disable",0.5562136080000002,8e-09,,
"SPI","enable",0.5572068880000002,8e-09,,
"SPI","result",0.5572068960000002,3.36e-06,0xE4,0xAC
"SPI","result",0.5572102560000002,3.352e-06,0xE5,0x3C
"SPI","disable",0.5572136080000002,8e-09,,
"SPI","enable",0.5582068880000002,8e-09,,
"SPI","result",0.5582068960000002,3.36e-06,0xE5,0xAF
"SPI","result",0.5582102560000002,3.352e-06,0xE6,0x43
"SPI","disable",0.5582136080000002,8e-09,,
"SPI","enable",0.5592068880000002,8e-09,,
"SPI","result",0.5592068960000002,3.36e-06,0xE6,0xB2
"SPI","result",0.5592102560000002,3.352e-06,0xE7,0x4A
"SPI","disable",0.5592136080000002,8e-09,,
"SPI","enable",0.5602068880000002,8e-09,,
"SPI","result",0.5602068960000002,3.36e-06,0xE7,0xB5
"SPI","result",0.5602102560000002,3.352e-06,0xE8,0x51
"SPI","disable",0.5602136080000002,8e-09,,
"SPI","enable",0.5612068880000002,8e-09,,
"SPI","result",0.5612068960000002,3.36e-06,0xE8,0xB8
"SPI","result",0.5612102560000002,3.352e-06,0xE9,0x58
"SPI","disable",0.5612136080000002,8e-09,,
"SPI","enable",0.5622068880000002,8e-09,,
"SPI","result",0.5622068960000002,3.36e-06,0xE9,0xBB
"SPI","result",0.5622102560000002,3.352e-06,0xEA,0x5F
"SPI","disable",0.5622136080000002,8e-09,,
"SPI","enable",0.5632068880000002,8e-09,,
"SPI","result",0.5632068960000002,3.36e-06,0xEA,0xBE
"SPI","result",0.5632102560000002,3.352e-06,0xEB,0x66
"SPI","disable",0.5632136080000002,8e-09,,
"SPI","enable",0.5642068880000002,8e-09,,
"SPI","result",0.5642068960000002,3.36e-06,0xEB,0xC1
"SPI","result",0.5642102560000002,3.352e-06,0xEC,0x6D
"SPI","disable",0.5642136080000002,8e-09,,
"SPI","enable",0.5652068880000002,8e-09,,
"SPI","result",0.5652068960000002,3.36e-06,0xEC,0xC4
"SPI","result",0.5652102560000002,3.352e-06,0xED,0x74
"SPI","disable",0.5652136080000002,8e-09,,
"SPI","enable",0.5662068880000002,8e-09,,
"SPI","result",0.5662068960000002,3.36e-06,0xED,0xC7
"SPI","result",0.5662102560000002,3.352e-06,0xEE,0x7B
"SPI","disable",0.5662136080000002,8e-09,,
"SPI","enable",0.5672068880000002,8e-09,,
"SPI","result",0.5672068960000002,3.36e-06,0xEE,0xCA
"SPI","result",0.5672102560000002,3.352e-06,0xEF,0x82
"SPI","disable",0.5672136080000002,8e-09,,
"SPI","enable",0.5682068880000002,8e-09,,
"SPI","result",0.5682068960000002,3.36e-06,0xEF,0xCD
"SPI","result",0.5682102560000002,3.352e-06,0xF0,0x89
"SPI","disable",0.5682136080000002,8e-09,,
"SPI","enable",0.5692068880000002,8e-09,,
"SPI","result",0.5692068960000002,3.36e-06,0xF0,0xD0
"SPI","result",0.5692102560000002,3.352e-06,0xF1,0x90
"SPI","disable",0.5692136080000002,8e-09,,
"SPI","enable",0.5702068880000002,8e-09,,
"SPI","result",0.5702068960000002,3.36e-06,0xF1,0xD3
"SPI","result",0.5702102560000002,3.352e-06,0xF2,0x97
"SPI","disable",0.5702136080000002,8e-09,,
"SPI","enable",0.5712068880000002,8e-09,,
"SPI","result",0.5712068960000002,3.36e-06,0xF2,0xD6
"SPI","result",0.5712102560000002,3.352e-06,0xF3,0x9E
"SPI","disable",0.5712136080000002,8e-09,,
"SPI","enable",0.5722068880000002,8e-09,,
"SPI","result",0.5722068960000002,3.36e-06,0xF3,0xD9
"SPI","result",0.5722102560000002,3.352e-06,0xF4,0xA5
"SPI","disable",0.5722136080000002,8e-09,,
"SPI","enable",0.5732068880000002,8e-09,,
"SPI","result",0.5732068960000002,3.36e-06,0xF4,0xDC
"SPI","result",0.5732102560000002,3.352e-06,0xF5,0xAC
"SPI","disable",0.5732136080000002,8e-09,,
"SPI","enable",0.5742068880000002,8e-09,,
"SPI","result",0.5742068960000002,3.36e-06,0xF5,0xDF
"SPI","result",0.5742102560000002,3.352e-06,0xF6,0xB3
"SPI","disable",0.5742136080000002,8e-09,,
"SPI","enable",0.5752068880000002,8e-09,,
"SPI","result",0.5752068960000002,3.36e-06,0xF6,0xE2
"SPI","result",0.5752102560000002,3.352e-06,0xF7,0xBA
"SPI","disable",0.5752136080000002,8e-09,,
"SPI","enable",0.5762068880000002,8e-09,,
"SPI","result",0.5762068960000002,3.36e-06,0xF7,0xE5
"SPI","result",0.5762102560000002,3.352e-06,0xF8,0xC1
"SPI","disable",0.5762136080000002,8e-09,,
"SPI","enable",0.5772068880000002,8e-09,,
"SPI","result",0.5772068960000002,3.36e-06,0xF8,0xE8
"SPI","result",0.5772102560000002,3.352e-06,0xF9,0xC8
"SPI","disable",0.5772136080000002,8e-09,,
"SPI","enable",0.5782068880000002,8e-09,,
"SPI","result",0.5782068960000002,3.36e-06,0xF9,0xEB
"SPI","result",0.5782102560000002,3.352e-06,0xFA,0xCF
"SPI","disable",0.5782136080000002,8e-09,,
"SPI","enable",0.5792068880000002,8e-09,,
"SPI","result",0.5792068960000002,3.36e-06,0xFA,0xEE
"SPI","result",0.5792102560000002,3.352e-06,0xFB,0xD6
"SPI","disable",0.5792136080000002,8e-09,,
"SPI","enable",0.5802068880000002,8e-09,,
"SPI","result",0.5802068960000002,3.36e-06,0xFB,0xF1
"SPI","result",0.5802102560000002,3.352e-06,0xFC,0xDD
"SPI","disable",0.5802136080000002,8e-09,,
"SPI","enable",0.5812068880000002,8e-09,,
"SPI","result",0.5812068960000002,3.36e-06,0xFC,0xF4
"SPI","result",0.5812102560000002,3.352e-06,0xFD,0xE4
"SPI","disable",0.5812136080000002,8e-09,,
"SPI","enable",0.5822068880000002,8e-09,,
"SPI","result",0.5822068960000002,3.36e-06,0xFD,0xF7
"SPI","result",0.5822102560000002,3.352e-06,0xFE,0xEB
"SPI","disable",0.5822136080000002,8e-09,,
"SPI","enable",0.5832068880000002,8e-09,,
"SPI","result",0.5832068960000002,3.36e-06,0xFE,0xFA
"SPI","result",0.5832102560000002,3.352e-06,0xFF,0xF2
"SPI","disable",0.5832136080000002,8e-09,,
"SPI","enable",0.5842068880000002,8e-09,,
"SPI","result",0.5842068960000002,3.36e-06,0xFF,0xFD
"SPI","result",0.5842102560000002,3.352e-06,0x0,0xF9
"SPI","disable",0.5842136080000002,8e-09,,
"SPI","enable",0.5852068880000002,8e-09,,
"SPI","result",0.5852068960000002,3.36e-06,0x0,0x0
"SPI","result",0.5852102560000002,3.352e-06,0x01,0x0
"SPI","disable",0.5852136080000002,8e-09,,
"SPI","enable",0.5862068880000002,8e-09,,
"SPI","result",0.5862068960000002,3.36e-06,0x01,0x3
"SPI","result",0.5862102560000002,3.352e-06,0x02,0x7
"SPI","disable",0.5862136080000002,8e-09,,
"SPI","enable",0.5872068880000002,8e-09,,
"SPI","result",0.5872068960000002,3.36e-06,0x02,0x6
"SPI","result",0.5872102560000002,3.352e-06,0x03,0xE
"SPI","disable",0.5872136080000002,8e-09,,
"SPI","enable",0.5882068880000002,8e-09,,
"SPI","result",0.5882068960000002,3.36e-06,0x03,0x9
"SPI","result",0.5882102560000002,3.352e-06,0x04,0x15
"SPI","disable",0.5882136080000002,8e-09,,
"SPI","enable",0.5892068880000002,8e-09,,
"SPI","result",0.5892068960000002,3.36e-06,0x04,0xC
"SPI","result",0.5892102560000002,3.352e-06,0x05,0x1C
"SPI","disable",0.5892136080000002,8e-09,,
"SPI","enable",0.5902068880000002,8e-09,,
"SPI","result",0.5902068960000002,3.36e-06,0x05,0xF
"SPI","result",0.5902102560000002,3.352e-06,0x06,0x23
"SPI","disable",0.5902136080000002,8e-09,,
"SPI","enable",0.5912068880000002,8e-09,,
"SPI","result",0.5912068960000002,3.36e-06,0x06,0x12
"SPI","result",0.5912102560000002,3.352e-06,0x07,0x2A
"SPI","disable",0.5912136080000002,8e-09,,
"SPI","enable",0.5922068880000002,8e-09,,
"SPI","result",0.5922068960000002,3.36e-06,0x07,0x15
"SPI","result",0.5922102560000002,3.352e-06,0x08,0x31
"SPI","disable",0.5922136080000002,8e-09,,
"SPI","enable",0.5932068880000002,8e-09,,
"SPI","result",0.5932068960000002,3.36e-06,0x08,0x18
"SPI","result",0.5932102560000002,3.352e-06,0x09,0x38
"SPI","disable",0.5932136080000002,8e-09,,
"SPI","enable",0.5942068880000002,8e-09,,
"SPI","result",0.5942068960000002,3.36e-06,0x09,0x1B
"SPI","result",0.5942102560000002,3.352e-06,0x0A,0x3F
"SPI","disable",0.5942136080000002,8e-09,,
